t_s,vout_V,iL_A,iload_A,vc_V,on,area_acc
0.0,1.0,10.10985,10.0,0.0088375,1.0,0.0
1.0000000000000001e-07,1.00015558237428,15.600224224484244,10.0,0.00882554018010233,1.0,0.0
2.0000000000000002e-07,1.0006020709373458,19.286519319205325,10.0,0.008790150572383214,0.0,-2.6654122400696827e-11
3.0000000000000004e-07,1.0011039767499983,18.771818397377338,10.0,0.008749931096270466,0.0,-1.0142444078062247e-10
4.0000000000000003e-07,1.0015772918676087,18.257259502074692,10.0,0.00871198669096758,0.0,-1.5436905333353483e-10
5.000000000000001e-07,1.0020220245666616,17.742856814917424,10.0,0.008676317410283992,0.0,-1.8526789854487205e-10
6.000000000000001e-07,1.002438183911106,17.228624502563612,10.0,0.008642923244814136,0.0,-1.9390162145950555e-10
7.000000000000001e-07,1.0028257797515119,16.714576716327247,10.0,0.008611804121985213,0.0,-1.8005157924336494e-10
8.000000000000001e-07,1.0031848227242044,16.200727591796753,10.0,0.00858295990610664,0.0,-1.4349984672109263e-10
9.000000000000001e-07,1.003515324250384,15.687091248454246,10.0,0.008556390398420885,0.0,-8.402922188964001e-11
1.0000000000000002e-06,1.0038172965352221,15.173681789295575,10.0,0.008532095337156187,0.0,-1.4232314076537501e-12
1.1e-06,1.0040907525669283,14.66051330045103,10.0,0.008510074397581417,0.0,1.0453386393948744e-10
1.2000000000000002e-06,1.0043357061158087,14.147599850806854,10.0,0.008490327192061992,0.0,2.340570637991329e-10
1.3e-06,1.0045521717332984,13.634955491627542,10.0,0.008472853270117564,0.0,3.873606228353984e-10
1.4000000000000001e-06,1.004740164750968,13.122594256178802,10.0,0.008457652118482007,0.0,5.646580453379636e-10
1.5e-06,1.0048997012795158,12.610530159351432,10.0,0.008444723161164545,0.0,7.661620798557553e-10
1.6000000000000001e-06,1.0050307982077367,12.098777197285884,10.0,0.008434065759512641,0.0,9.920847138556229e-10
1.7e-06,1.00513347320147,11.58734934699771,10.0,0.008425679212276833,0.0,1.242637168406155e-09
1.8000000000000001e-06,1.0052077447025278,11.076260566003754,10.0,0.008419562755676931,0.0,1.5180298928867457e-09
1.9e-06,1.005253631927598,10.565524791949196,10.0,0.008415715563470337,0.0,1.818472559722081e-09
2.0000000000000003e-06,1.0052711548671363,10.055155942235455,10.0,0.008414136747021387,0.0,2.1441740591421177e-09
2.1000000000000002e-06,1.0052603342842237,9.545167913648877,10.0,0.008414825355373268,0.0,2.4953424939677136e-09
2.2e-06,1.005221191713419,9.035574581990295,10.0,0.008417780375320634,0.0,2.87218517442205e-09
2.3e-06,1.0051537494595777,8.526389801705482,10.0,0.008423000731484633,0.0,3.2749086129679096e-09
2.4000000000000003e-06,1.0050580305966572,8.017627405516423,10.0,0.008430485286389296,0.0,3.7037185191710063e-09
2.5e-06,1.0049340589664988,7.509301204053486,10.0,0.008440232840539743,0.0,4.1588197945894404e-09
2.6e-06,1.004781859177594,7.001424985488499,10.0,0.00845224213250163,0.0,4.6404165276894484e-09
2.7e-06,1.004601456603822,6.494012515168715,10.0,0.008466511838983013,0.0,5.148711988787482e-09
2.8000000000000003e-06,1.0043928773831725,5.987077535251674,10.0,0.008483040574917243,0.0,5.683908625018859e-09
2.9e-06,1.0041561484164525,5.480633764340983,10.0,0.00850182689354748,0.0,6.246208055332999e-09
3e-06,1.0038912973659624,4.974694897123051,10.0,0.008522869286513449,0.0,6.835811065515418e-09
3.1000000000000004e-06,1.0036291495635434,7.108856792541387,10.0,0.008543926294774752,1.0,0.0
3.2000000000000003e-06,1.0036180226896478,12.599707861961473,10.0,0.008545214570474064,1.0,0.0
3.3e-06,1.0038278442081257,13.767516491819366,10.0,0.008528450383794258,0.0,1.1203350951986985e-10
3.4e-06,1.0040232088444523,13.255416097838413,10.0,0.00851267754377493,0.0,2.882270416873081e-10
3.5000000000000004e-06,1.0041901313771509,12.74360895893191,10.0,0.008499175562421862,0.0,4.885570018282534e-10
3.6000000000000003e-06,1.004328628479148,12.232109067014653,10.0,0.00848794381799463,0.0,7.132354389880266e-10
3.7e-06,1.004438717600183,11.720930394987658,10.0,0.008478981626179768,0.0,9.624736377146767e-10
3.8e-06,1.0045204169657422,11.210086896364402,10.0,0.008472288240156629,0.0,1.2364821127648764e-09
3.9e-06,1.00457374557597,10.699592504897868,10.0,0.008467862850664977,0.0,1.5354706038351462e-09
4.000000000000001e-06,1.0045987232045628,10.189461134208477,10.0,0.008465704586074171,0.0,1.8596480703185654e-09
4.1000000000000006e-06,1.0045953703976371,9.679706677412788,10.0,0.008465812512454332,0.0,2.209222686087062e-09
4.2000000000000004e-06,1.0045637084725867,9.17034300675312,10.0,0.008468185633648456,0.0,2.5844018342994383e-09
4.3e-06,1.0045037595169046,8.661383973227974,10.0,0.008472822891347284,0.0,2.985392102235218e-09
4.4e-06,1.0044155463870004,8.152843406223319,10.0,0.008479723165164781,0.0,3.4123992761544977e-09
4.5e-06,1.0042990927069844,7.644735113144814,10.0,0.00848888527271601,0.0,3.865628336183859e-09
4.6e-06,1.0041544228674386,7.1370728790508675,10.0,0.008500307969696372,0.0,4.345283451228522e-09
4.7e-06,1.0039815620241646,6.629870466286581,10.0,0.008513989949962534,0.0,4.8515679739108176e-09
4.800000000000001e-06,1.0037805360969143,6.123141614118644,10.0,0.008529929845614775,0.0,5.384684435535124e-09
4.9000000000000005e-06,1.003551371768094,5.616900038371102,10.0,0.00854812622708169,0.0,5.944834541079382e-09
5e-06,1.0032940964814538,5.111159431062072,10.0,0.008568577603205793,0.0,6.532219164213295e-09
5.1e-06,1.0030087384407564,4.605933460041386,10.0,0.00859128242133108,0.0,7.147038342343383e-09
5.2e-06,1.0028332960116213,9.619352944969553,10.0,0.008605680343253394,1.0,0.0
5.3e-06,1.0029556003653999,13.90876661548369,10.0,0.008596216187781103,0.0,3.230531778916525e-11
5.4e-06,1.0031588211828215,13.396994360974338,10.0,0.008579836592345375,0.0,2.0817393663260332e-10
5.500000000000001e-06,1.0033336180129027,12.885511184430834,10.0,0.008565726209274652,0.0,4.081019191365763e-10
5.600000000000001e-06,1.0034800072963486,12.374331071901715,10.0,0.008553884434955679,0.0,6.323013596401521e-10
5.7000000000000005e-06,1.0035980062503551,11.863467990542288,10.0,0.008544310603233702,0.0,8.809835900898228e-10
5.8e-06,1.0036876328675466,11.352935888240903,10.0,0.008537003985478044,0.0,1.1543591747424981e-09
5.9e-06,1.0037489059148985,10.842748693246113,10.0,0.00853196379064894,0.0,1.4526379048937997e-09
6e-06,1.0037818449326343,10.332920313794672,10.0,0.008529189165366305,0.0,1.776028793631748e-09
6.1e-06,1.0037864702331034,9.823464637740255,10.0,0.008528679193980216,0.0,2.1247400706160067e-09
6.200000000000001e-06,1.0037628028996408,9.314395532183157,10.0,0.008530432898642814,0.0,2.498979176882775e-09
6.300000000000001e-06,1.0037108647854032,8.805726843100743,10.0,0.00853444923938212,0.0,2.8989527596754765e-09
6.4000000000000006e-06,1.0036306785121827,8.297472394978861,10.0,0.008540727114177605,0.0,3.324866667301367e-09
6.5000000000000004e-06,1.0035222674692068,7.789645990444004,10.0,0.008549265359037113,0.0,3.776925944014174e-09
6.6e-06,1.0033856558119123,7.2822614098964715,10.0,0.008560062748075557,0.0,4.255334824922907e-09
6.7e-06,1.0032208684606974,6.7753324111443565,10.0,0.008573117993595728,0.0,4.760296730926928e-09
6.8e-06,1.0030279310996635,6.2688727290384385,10.0,0.008588429746169753,0.0,5.292014263677475e-09
6.900000000000001e-06,1.0028068701753243,5.7628960751080225,10.0,0.008605996594723215,0.0,5.850689200565628e-09
7.000000000000001e-06,1.0025577128953027,5.257416137197662,10.0,0.00862581706662041,0.0,6.436522489736989e-09
7.100000000000001e-06,1.0022804872270057,4.752446579104821,10.0,0.008647889627751253,0.0,7.049714245133078e-09
7.2000000000000005e-06,1.0020792020036522,9.046584137272907,10.0,0.008664309495834346,1.0,0.0
7.3e-06,1.0021749077271545,14.056741574128216,10.0,0.008657056532074997,0.0,1.293152709559148e-11
7.4e-06,1.0023863569429101,13.545246567244495,10.0,0.008640038105974626,0.0,1.8744605348661378e-10
7.5e-06,1.0025693974562753,13.03403631402583,10.0,0.008625287463161184,0.0,3.859422309775766e-10
7.6e-06,1.0027240454675965,12.523124796181985,10.0,0.00861280401887054,0.0,6.086322282826914e-10
7.7e-06,1.002850317953474,12.012525976652931,10.0,0.00860258712582207,0.0,8.557274538236942e-10
7.8e-06,1.002948232665706,11.502253799235183,10.0,0.008594636074283667,0.0,1.127438550429148e-09
7.9e-06,1.0030178081302186,10.99232218820894,10.0,0.008588950092138004,0.0,1.4239753900589734e-09
8.000000000000001e-06,1.003059063645968,10.48274504796608,10.0,0.008585528344950974,0.0,1.7455470685543294e-09
8.1e-06,1.0030720192838265,9.973536262638953,10.0,0.008584369936041418,0.0,2.092361900412997e-09
8.200000000000001e-06,1.003056695885448,9.464709695730068,10.0,0.008585473906552602,0.0,2.464627413590363e-09
8.3e-06,1.003013115062111,8.956279189742553,10.0,0.008588839235525513,0.0,2.862550344326123e-09
8.400000000000001e-06,1.0029412991935434,8.448258565811521,10.0,0.008594464839973613,0.0,3.2863366319968633e-09
8.5e-06,1.0028412714267194,7.940661623336323,10.0,0.008602349574959723,0.0,3.736191413994632e-09
8.6e-06,1.002713055674651,7.433502139613641,10.0,0.008612492233673708,0.0,4.212319020631603e-09
8.7e-06,1.0025566766151441,6.926793869471482,10.0,0.00862489154751274,0.0,4.714922970070963e-09
8.8e-06,1.0023721596895405,6.420550544904082,10.0,0.008639546186162729,0.0,5.244205963284161e-09
8.900000000000001e-06,1.0021595311014428,5.914785874707701,10.0,0.008656454757681308,0.0,5.800369879034621e-09
9e-06,1.0019188178154126,5.4095135441173445,10.0,0.008675615808582922,0.0,6.383615768888045e-09
9.100000000000001e-06,1.001650047555654,4.90474721444443,10.0,0.00869702782392498,0.0,6.994143852249401e-09
9.2e-06,1.0014280367693702,8.479482907456791,10.0,0.008715057706220341,1.0,0.0
9.3e-06,1.0014930574346448,13.97038788547369,10.0,0.00871030827866447,1.0,0.0
9.4e-06,1.0017126489587715,13.699121984894031,10.0,0.008692687440119957,0.0,1.6569536244061562e-10
9.5e-06,1.0019042440960546,13.188131002869149,10.0,0.008677269184822594,0.0,3.6172327348717566e-10
9.600000000000001e-06,1.002067458792088,12.677434313121234,10.0,0.008664116948775688,0.0,5.818673280795947e-10
9.7e-06,1.0022023097765616,12.167045875953638,10.0,0.008653230104152703,0.0,8.263390399243968e-10
9.800000000000001e-06,1.0023088145542194,11.656979632651685,10.0,0.008644607960693341,0.0,1.0953491592100046e-09
9.9e-06,1.002386991403797,11.147249505109796,10.0,0.008638249765769183,0.0,1.389107667326747e-09
1e-05,1.0024368593769306,10.637869395459417,10.0,0.008634154704451516,0.0,1.7078237716121438e-09
1.01e-05,1.0024584382970516,10.128853185697825,10.0,0.008632321899580514,0.0,2.051705900121647e-09
1.02e-05,1.0024517487582558,9.62021473731775,10.0,0.008632750411836318,0.0,2.420961696424917e-09
1.0300000000000001e-05,1.0024168121241577,9.111967890937812,10.0,0.008635439239811481,0.0,2.815798014427799e-09
1.04e-05,1.002353650526718,8.604126465933847,10.0,0.008640387320085402,0.0,3.2364209132200756e-09
1.0500000000000001e-05,1.0022622868650515,8.096704260071101,10.0,0.008647593527300598,0.0,3.6830356519491853e-09
1.06e-05,1.002142744804221,7.589715049137274,10.0,0.008657056674239896,0.0,4.155846684719983e-09
1.0700000000000001e-05,1.001995048774005,7.0831725865764845,10.0,0.008668775511905888,0.0,4.655057655520654e-09
1.08e-05,1.0018192239676433,6.5770906031241,10.0,0.008682748729602138,0.0,5.180871393174952e-09
1.09e-05,1.00161529634057,6.0714828064424795,10.0,0.008698974955015449,0.0,5.733489906320849e-09
1.1000000000000001e-05,1.0013832926091188,5.566362880757635,10.0,0.008717452754300394,0.0,6.313114378415698e-09
1.11e-05,1.0011232402492118,5.06174448649681,10.0,0.008738180632165105,0.0,6.919945162768076e-09
1.1200000000000001e-05,1.0008892934858935,8.036905687527067,10.0,0.008757125314919753,1.0,0.0
1.13e-05,1.0009297429997956,13.528417769065804,10.0,0.008754355403066304,1.0,0.0
1.1400000000000001e-05,1.0011547874090756,13.857359319543333,10.0,0.008736365739537857,0.0,1.464378181603151e-10
1.15e-05,1.0013551778324923,13.346526377451175,10.0,0.008720257714220591,0.0,3.388826310446141e-10
1.16e-05,1.0015271964717076,12.835983210991344,10.0,0.008706414795199728,0.0,5.553667724039463e-10
1.1700000000000001e-05,1.0016708598054618,12.325743779587972,10.0,0.008694836374511265,0.0,7.961018915166304e-10
1.18e-05,1.001786185087503,11.815822023773253,10.0,0.00868552178176743,0.0,1.06129887617053e-09
1.1900000000000001e-05,1.0018731903455345,11.306231864814485,10.0,0.008678470284221496,0.0,1.3511678473776997e-09
1.2e-05,1.0019318943801279,10.796987204341987,10.0,0.008673681086835403,0.0,1.6659181541142895e-09
1.2100000000000001e-05,1.0019623167636262,10.288101923977733,10.0,0.008671153332348044,0.0,2.005758368085835e-09
1.22e-05,1.0019644778390195,9.77958988496495,10.0,0.008670886101346106,0.0,2.3708962785180457e-09
1.23e-05,1.001938398718805,9.271464927798453,10.0,0.008672878412335733,0.0,2.7615388869732165e-09
1.2400000000000002e-05,1.001884101283822,8.763740871855882,10.0,0.008677129221816704,0.0,3.1778924021924112e-09
1.25e-05,1.0018016081820706,8.25643151502978,10.0,0.008683637424357533,0.0,3.6201622349635124e-09
1.2600000000000001e-05,1.0016909428275058,7.749550633360592,10.0,0.008692401852672829,0.0,4.088552993015274e-09
1.27e-05,1.0015521293988177,7.2431119806704665,10.0,0.008703421277701738,0.0,4.583268475937508e-09
1.2800000000000001e-05,1.001385192838183,6.737129288198019,10.0,0.008716694408688584,0.0,5.104511670127499e-09
1.29e-05,1.0011901588500012,6.231616264233964,10.0,0.008732219893264979,0.0,5.652484743762797e-09
1.3000000000000001e-05,1.0009670538996127,5.72658659375765,10.0,0.008749996317533267,0.0,6.2273890418005036e-09
1.3100000000000002e-05,1.0007159052119898,5.222053938074533,10.0,0.008770022206152165,0.0,6.829425081003135e-09
1.32e-05,1.0004647381017278,7.237652197268513,10.0,0.008790269450058792,1.0,0.0
1.3300000000000001e-05,1.00046080692873,12.72998657094299,10.0,0.00879106122385476,1.0,0.0
1.34e-05,1.0006825718925132,14.019209999284774,10.0,0.008773431155899217,0.0,1.174697813255323e-10
1.3500000000000001e-05,1.0008919571033736,13.50848953185784,10.0,0.008756615252807133,0.0,3.05489731422376e-10
1.36e-05,1.001072976653903,12.998054258486324,10.0,0.00874206374074933,0.0,5.174726740869824e-10
1.3700000000000001e-05,1.0012256467683198,12.487918139030798,10.0,0.008729776031973637,0.0,7.536304171709094e-10
1.3800000000000002e-05,1.0013499844458809,11.97809511458679,10.0,0.008719751476307984,0.0,1.0141740090317093e-09
1.39e-05,1.001446007459829,11.468599107111714,10.0,0.008711989361225305,0.0,1.2993137332416282e-09
1.4000000000000001e-05,1.0015137343563214,10.95944401905263,10.0,0.008706488911909867,0.0,1.6092591033215096e-09
1.41e-05,1.0015531844533316,10.450643732974825,10.0,0.008703249291325715,0.0,1.944218857500022e-09
1.4200000000000001e-05,1.0015643778395398,9.942212111191226,10.0,0.00870226960028617,0.0,2.304400953498338e-09
1.43e-05,1.0015473353731925,9.43416299539265,10.0,0.008703548877525768,0.0,2.690012563340402e-09
1.4400000000000001e-05,1.00150207868095,8.926510206278914,10.0,0.008707086099773236,0.0,3.1012600681889023e-09
1.45e-05,1.0014286301567115,8.419267543190761,10.0,0.008712880181826227,0.0,3.5383490532070557e-09
1.46e-05,1.0013270129604135,7.912448783742728,10.0,0.008720929976628166,0.0,4.001484302446368e-09
1.4700000000000002e-05,1.0011972510168168,7.406067683456837,10.0,0.008731234275346288,0.0,4.490869793760448e-09
1.48e-05,1.0010393690142698,6.900137975397178,10.0,0.008743791807451308,0.0,5.006708693745049e-09
1.4900000000000001e-05,1.0008533924034482,6.394673369805415,10.0,0.008758601240799207,0.0,5.549203352704375e-09
1.5e-05,1.0006393473960775,5.889687553737177,10.0,0.00877566118171429,0.0,6.118555299643881e-09
1.5100000000000001e-05,1.000397260963636,5.385194190699379,10.0,0.008794970175073965,0.0,6.714965237289594e-09
1.52e-05,1.0001344938388923,6.201107704756536,10.0,0.00881604671261979,1.0,0.0
1.5300000000000003e-05,1.000073002763092,11.69439836363853,10.0,0.00882145232491918,1.0,0.0
1.54e-05,1.0002765865002492,14.184069572670698,10.0,0.008805393579852917,0.0,8.257607162218389e-11
1.55e-05,1.0004951326959195,13.673426180382142,10.0,0.008787854842257095,0.0,2.6551051799235256e-10
1.56e-05,1.0006853173869583,13.163063344525769,10.0,0.008772579933751266,0.0,4.723319045205993e-10
1.5700000000000002e-05,1.0008471565399764,12.652995026425119,10.0,0.008759568287091304,0.0,7.032522157558122e-10
1.58e-05,1.0009806668967098,12.143235168766324,10.0,0.008748819272612616,0.0,9.584826787273784e-10
1.59e-05,1.0010858659729722,11.633797695224885,10.0,0.008740332198294804,0.0,1.238233757647447e-09
1.6000000000000003e-05,1.0011627720575873,11.1246965100933,10.0,0.0087341063098275,0.0,1.542715148638328e-09
1.6100000000000002e-05,1.0012114042113074,10.615945497909516,10.0,0.008730140790677675,0.0,1.872135774485195e-09
1.62e-05,1.001231782265698,10.107558523086189,10.0,0.008728434762159407,0.0,2.226703779414162e-09
1.63e-05,1.0012239268220136,9.599549429540742,10.0,0.0087289872835047,0.0,2.6066265238959292e-09
1.6400000000000002e-05,1.001187859250052,9.091932040326364,10.0,0.008731797351935716,0.0,3.0121105794750533e-09
1.65e-05,1.0011236016869793,8.58472015726376,10.0,0.008736863902739702,0.0,3.4433617236250014e-09
1.66e-05,1.0010311770361449,8.077927560573855,10.0,0.00874418580934445,0.0,3.900584934629127e-09
1.67e-05,1.0009106089658677,7.5715680085113,10.0,0.008753761883396266,0.0,4.383984386487654e-09
1.6800000000000002e-05,1.0007619219082091,7.065655236998918,10.0,0.008765590874839047,0.0,4.893763443850829e-09
1.69e-05,1.0005851410577211,6.560202959263014,10.0,0.008779671471995279,0.0,5.430124656978315e-09
1.7e-05,1.0003802923701774,6.05522486546959,10.0,0.008796002301648419,0.0,5.993269756724991e-09
1.7100000000000002e-05,1.0001474025612767,5.550734622361503,10.0,0.008814581929127726,0.0,6.5833996495532705e-09
1.72e-05,0.9998864991053383,5.166745872896485,10.0,0.008835408858393422,1.0,0.0
1.73e-05,0.9997675682213455,10.660950041421975,10.0,0.008845416640110864,1.0,0.0
1.74e-05,0.999939759957231,14.351209362278794,10.0,0.00883198419165172,0.0,4.8547975627449314e-11
1.7500000000000002e-05,1.0001675928281943,13.840606738004285,10.0,0.008813710830571099,0.0,2.2574601306452457e-10
1.76e-05,1.0003670663322022,13.330279997431143,10.0,0.008797700894957452,0.0,4.2675558364521527e-10
1.77e-05,1.000538196176337,12.820243104381303,10.0,0.008783953838278801,0.0,6.517888661883254e-10
1.7800000000000002e-05,1.0006809988429486,12.31051000416708,10.0,0.008772469051578016,0.0,9.010572839360981e-10
1.79e-05,1.0007954915886126,11.801094623217812,10.0,0.008763245863536608,0.0,1.174771499249548e-09
1.8e-05,1.0008816924430746,11.292010868707322,10.0,0.00875628354053994,0.0,1.4731414083289366e-09
1.81e-05,1.0009396202081653,10.783272628182155,10.0,0.00875158128674458,0.0,1.7963761359594578e-09
1.8200000000000002e-05,1.000969294456707,10.274893769190665,10.0,0.008749138244146559,0.0,2.1446840302822812e-09
1.83e-05,1.0009707355313853,9.766888138912945,10.0,0.008748953492652221,0.0,2.5182726575910748e-09
1.84e-05,1.0009439645436131,9.25926956379156,10.0,0.008751026050149935,0.0,2.917348797154147e-09
1.8500000000000002e-05,1.0008890033723636,8.752051849163173,10.0,0.008755354872584137,0.0,3.3421184360623135e-09
1.86e-05,1.0008058746629926,8.245248778891016,10.0,0.008761938854030454,0.0,3.792786764102627e-09
1.87e-05,1.0006946018260332,7.73887411499822,10.0,0.008770776826772792,0.0,4.269558168658077e-09
1.88e-05,1.000555209035971,7.232941597302059,10.0,0.008781867561382321,0.0,4.7726362296333896e-09
1.8900000000000002e-05,1.0003877212300034,6.727464943049059,10.0,0.008795209766797544,0.0,5.302223714407071e-09
1.9e-05,1.0001921641067735,6.222457846551005,10.0,0.00881080209040648,0.0,5.858522572809775e-09
1.91e-05,0.9999685641250862,5.717933978821873,10.0,0.00882864311813038,0.0,6.441733932129138e-09
1.9200000000000003e-05,0.9997169485026066,5.213906987215675,10.0,0.008848731374508789,0.0,7.052058092141204e-09
1.93e-05,0.9995361268171735,9.389044759749634,10.0,0.008863567405265562,1.0,0.0
1.94e-05,0.9996512856574491,14.520206447443151,10.0,0.008854832291671997,0.0,9.50950990561035e-12
