t_s,vout_V,iL_A,iload_A,vc_V,on,area_acc
0.0,1.0,10.10985,10.0,0.0088375,1.0,0.0
1.0000000000000001e-07,1.00015558237428,15.600224224484244,10.0,0.00882554018010233,1.0,0.0
2.0000000000000002e-07,1.0006020709373458,19.286519319205325,10.0,0.008790150572383214,0.0,-2.6654122400696827e-11
3.0000000000000004e-07,1.0011039767499983,18.771818397377338,10.0,0.008749931096270466,0.0,-1.0142444078062247e-10
4.0000000000000003e-07,1.0015772918676087,18.257259502074692,10.0,0.00871198669096758,0.0,-1.5436905333353483e-10
5.000000000000001e-07,1.0020220245666616,17.742856814917424,10.0,0.008676317410283992,0.0,-1.8526789854487205e-10
6.000000000000001e-07,1.002438183911106,17.228624502563612,10.0,0.008642923244814136,0.0,-1.9390162145950555e-10
7.000000000000001e-07,1.0028257797515119,16.714576716327247,10.0,0.008611804121985213,0.0,-1.8005157924336494e-10
8.000000000000001e-07,1.0031848227242044,16.200727591796753,10.0,0.00858295990610664,0.0,-1.4349984672109263e-10
9.000000000000001e-07,1.003515324250384,15.687091248454246,10.0,0.008556390398420885,0.0,-8.402922188964001e-11
1.0000000000000002e-06,1.0038172965352221,15.173681789295575,10.0,0.008532095337156187,0.0,-1.4232314076537501e-12
1.1e-06,1.0040907525669283,14.66051330045103,10.0,0.008510074397581417,0.0,1.0453386393948744e-10
1.2000000000000002e-06,1.0043357061158087,14.147599850806854,10.0,0.008490327192061992,0.0,2.340570637991329e-10
1.3e-06,1.0045521717332984,13.634955491627542,10.0,0.008472853270117564,0.0,3.873606228353984e-10
1.4000000000000001e-06,1.004740164750968,13.122594256178802,10.0,0.008457652118482007,0.0,5.646580453379636e-10
1.5e-06,1.0048997012795158,12.610530159351432,10.0,0.008444723161164545,0.0,7.661620798557553e-10
1.6000000000000001e-06,1.0050307982077367,12.098777197285884,10.0,0.008434065759512641,0.0,9.920847138556229e-10
1.7e-06,1.00513347320147,11.58734934699771,10.0,0.008425679212276833,0.0,1.242637168406155e-09
1.8000000000000001e-06,1.0052077447025278,11.076260566003754,10.0,0.008419562755676931,0.0,1.5180298928867457e-09
1.9e-06,1.005253631927598,10.565524791949196,10.0,0.008415715563470337,0.0,1.818472559722081e-09
2.0000000000000003e-06,1.0052711548671363,10.055155942235455,10.0,0.008414136747021387,0.0,2.1441740591421177e-09
2.1000000000000002e-06,1.0052603342842237,9.545167913648877,10.0,0.008414825355373268,0.0,2.4953424939677136e-09
2.2e-06,1.005221191713419,9.035574581990295,10.0,0.008417780375320634,0.0,2.87218517442205e-09
2.3e-06,1.0051537494595777,8.526389801705482,10.0,0.008423000731484633,0.0,3.2749086129679096e-09
2.4000000000000003e-06,1.0050580305966572,8.017627405516423,10.0,0.008430485286389296,0.0,3.7037185191710063e-09
2.5e-06,1.0049340589664988,7.509301204053486,10.0,0.008440232840539743,0.0,4.1588197945894404e-09
2.6e-06,1.004781859177594,7.001424985488499,10.0,0.00845224213250163,0.0,4.6404165276894484e-09
2.7e-06,1.004601456603822,6.494012515168715,10.0,0.008466511838983013,0.0,5.148711988787482e-09
2.8000000000000003e-06,1.0043928773831725,5.987077535251674,10.0,0.008483040574917243,0.0,5.683908625018859e-09
2.9e-06,1.0041561484164525,5.480633764340983,10.0,0.00850182689354748,0.0,6.246208055332999e-09
3e-06,1.0038912973659624,4.974694897123051,10.0,0.008522869286513449,0.0,6.835811065515418e-09
3.1000000000000004e-06,1.0037131295317325,9.507709811741758,10.0,0.008537420469408445,1.0,0.0
3.2000000000000003e-06,1.0038332216221648,14.276714818856632,10.0,0.008528153999534192,0.0,1.6473804042201027e-11
3.3e-06,1.0040568644644547,13.764223051322423,10.0,0.008510118387385022,0.0,1.6707190245231096e-10
3.4e-06,1.00425204308342,13.25201070376288,10.0,0.00849435469556221,0.0,3.4160011297765004e-10
3.5000000000000004e-06,1.004418773383958,12.740091789709297,10.0,0.008480862364332039,0.0,5.402712852194471e-10
3.6000000000000003e-06,1.0045570720489891,12.228480304046517,10.0,0.008469640771310074,0.0,7.632975093885503e-10
3.7e-06,1.004666956538411,11.71719022263834,10.0,0.008460689231525504,0.0,1.0108901109851406e-09
3.8e-06,1.004748445088033,11.206235501953678,10.0,0.008454006997486769,0.0,1.2832596455036318e-09
3.9e-06,1.004801556708486,10.695630078693547,10.0,0.008449593259249478,0.0,1.5806158931629302e-09
4.000000000000001e-06,1.004826311184117,10.185387869418895,10.0,0.008447447144485457,0.0,1.903167853662178e-09
4.1000000000000006e-06,1.004822729071856,9.675522770179251,10.0,0.008447567718553905,0.0,2.2511237409620947e-09
4.2000000000000004e-06,1.0047908317000727,9.166048656142255,10.0,0.008449953984573707,0.0,2.624690978092048e-09
4.3e-06,1.0047306411673995,8.65697938122401,10.0,0.008454604883498106,0.0,3.0240761919829574e-09
4.4e-06,1.004642180341546,8.148328777720307,10.0,0.008461519294190428,0.0,3.449485208326195e-09
4.5e-06,1.0045254728580855,7.6401106559387415,10.0,0.008470696033501824,0.0,3.90112304645859e-09
4.6e-06,1.0043805431192236,7.132338803831704,10.0,0.008482133856350573,0.0,4.379193914273636e-09
4.7e-06,1.004207416292545,6.625026986630284,10.0,0.008495831455803219,0.0,4.883901203159061e-09
4.800000000000001e-06,1.0040061183097437,6.118188946479053,10.0,0.008511787463156896,0.0,5.415447482960861e-09
4.9000000000000005e-06,1.0037766758653317,5.611838402071772,10.0,0.008530000448023642,0.0,5.9740344969738975e-09
5e-06,1.0035191164153197,5.10598904828804,10.0,0.008550468918416734,0.0,6.55986315695922e-09
5.1e-06,1.0032562662322666,6.880345490147487,10.0,0.008571559387156896,1.0,0.0
5.2e-06,1.0032324540797373,12.371557361222747,10.0,0.008573871994727058,1.0,0.0
5.3e-06,1.0034432071351864,13.899547058455498,10.0,0.008557074983821338,0.0,1.0071458775528696e-10
5.4e-06,1.0036459093101502,13.387538128754189,10.0,0.008540724674900416,0.0,2.731373491570352e-10
5.500000000000001e-06,1.003820174361097,12.875818716904591,10.0,0.008526644642444733,0.0,4.696342801618297e-10
5.600000000000001e-06,1.0039660187533404,12.36440281518536,10.0,0.008514834281201061,0.0,6.904175592883614e-10
5.7000000000000005e-06,1.0040834597290296,11.853304396964848,10.0,0.008505292923346413,0.0,9.356986021862116e-10
5.8e-06,1.0041725153060872,11.342537416327271,10.0,0.008498019838553672,0.0,1.2056880563368855e-09
5.9e-06,1.0042332042771298,10.832115807699665,10.0,0.008493014234058556,0.0,1.5005957957801576e-09
6e-06,1.0042655462083663,10.32205348547971,10.0,0.008490275254728303,0.0,1.8206309158658207e-09
6.1e-06,1.004269561438474,9.812364343664337,10.0,0.008489801983132223,0.0,2.1660017280309874e-09
6.200000000000001e-06,1.0042452710774528,9.303062255479244,10.0,0.008491593439614071,0.0,2.536915754603105e-09
6.300000000000001e-06,1.0041926970054678,8.79416107300921,10.0,0.00849564858236535,0.0,2.9335797236287314e-09
6.4000000000000006e-06,1.0041118618716558,8.285674626829302,10.0,0.00850196630750142,0.0,3.3561995637282756e-09
6.5000000000000004e-06,1.0040027890929277,7.777616725636951,10.0,0.008510545449138212,0.0,3.80498039897678e-09
6.6e-06,1.0038655028527408,7.270001155884905,10.0,0.008521384779471093,0.0,4.280126543810859e-09
6.7e-06,1.0037000280998518,6.762841681415078,10.0,0.00853448300885554,0.0,4.781841497961964e-09
6.8e-06,1.0035063905470514,6.25615204309331,10.0,0.008549838785889158,0.0,5.310327941416047e-09
6.900000000000001e-06,1.0032846166698781,5.7499459584450205,10.0,0.008567450697495512,0.0,5.8657877293997745e-09
7.000000000000001e-06,1.0030347337053125,5.244237121291796,10.0,0.008587317269009473,0.0,6.448421887393385e-09
7.100000000000001e-06,1.0027627694101424,5.9389580446372205,10.0,0.008609052969719389,1.0,0.0
7.2000000000000005e-06,1.0026866841135926,11.431135160720979,10.0,0.00861556049244379,1.0,0.0
7.3e-06,1.0028788114331693,14.039657410884265,10.0,0.008600363644443826,0.0,7.29972676140311e-11
7.4e-06,1.0030893023030027,13.527823623828324,10.0,0.008583404270010012,0.0,2.427080154642491e-10
7.5e-06,1.003271365669363,13.016275328032982,10.0,0.008568714207204368,0.0,4.3642331852421976e-10
7.6e-06,1.003425017773815,12.505026514042031,10.0,0.008556292868435535,0.0,6.543554611020986e-10
7.7e-06,1.0035502756346664,11.994091153602117,10.0,0.00854613960355562,0.0,8.967159664877768e-10
7.8e-06,1.0036471570459133,11.483483199288848,10.0,0.008538253699924881,0.0,1.1637155916495177e-09
7.9e-06,1.0037156805761647,10.973216584133743,10.0,0.008532634382478525,0.0,1.4555643219558711e-09
8.000000000000001e-06,1.0037558655675451,10.463305221251975,10.0,0.008529280813795035,0.0,1.7724713659229656e-09
8.1e-06,1.0037677321345815,9.953763003470975,10.0,0.008528192094165908,0.0,2.114645149987302e-09
8.200000000000001e-06,1.003751301163063,9.444603802959836,10.0,0.008529367261667453,0.0,2.48229331330416e-09
8.3e-06,1.0037065943088823,8.935841470859627,10.0,0.008532805292234324,0.0,2.8756227025718084e-09
8.400000000000001e-06,1.0036336339968617,8.427489836914514,10.0,0.008538505099734035,0.0,3.294839366881558e-09
8.5e-06,1.0035324434195505,7.919562709103772,10.0,0.008546465536043992,0.0,3.740148552593834e-09
8.6e-06,1.0034030465360082,7.412073873274676,10.0,0.008556685391129608,0.0,4.211754698240377e-09
8.7e-06,1.0032454680705623,6.905037092776302,10.0,0.008569163393124506,0.0,4.709861429452681e-09
8.8e-06,1.003059733511552,6.398466108094185,10.0,0.008583898208411881,0.0,5.234671553916838e-09
8.900000000000001e-06,1.0028458691100441,5.892374636485918,10.0,0.008600888441708093,0.0,5.786387056354842e-09
9e-06,1.0026039018785367,5.386776371617661,10.0,0.008620132636147297,0.0,6.365209093532508e-09
9.100000000000001e-06,1.0023342595876354,5.241679581895239,10.0,0.008641618606634933,1.0,0.0
9.2e-06,1.002219456831145,10.734603126103865,10.0,0.008651234779591097,1.0,0.0
9.3e-06,1.0023915726371524,14.183636830769853,10.0,0.008637725630861525,0.0,5.1097736620003446e-11
9.4e-06,1.0026100660202006,13.671936668877072,10.0,0.008620138150210198,0.0,2.1731039441965846e-10
9.5e-06,1.0028001392117387,13.160517896475852,10.0,0.008604819195712505,0.0,4.0745817583054527e-10
9.600000000000001e-06,1.0029618082254415,12.649394503586365,10.0,0.008591768197828278,0.0,6.217534926356692e-10
9.7e-06,1.003095089851699,12.138580461545924,10.0,0.008580984524468633,0.0,8.604079974286636e-10
9.800000000000001e-06,1.0032000016565727,11.628089722635062,10.0,0.008572467481060008,0.0,1.1236325783054846e-09
9.9e-06,1.0032765619807205,11.117936219704344,10.0,0.008566216310610771,0.0,1.4116373535813067e-09
1e-05,1.0033247899383109,10.608133865802078,10.0,0.008562230193778626,0.0,1.7246316665327619e-09
1.01e-05,1.0033447054159128,10.098696553802812,10.0,0.008560508248940217,0.0,2.0628240801656314e-09
1.02e-05,1.0033363290713637,9.58963815603666,10.0,0.008561049532262213,0.0,2.4264223720081224e-09
1.0300000000000001e-05,1.0032996823326183,9.080972523919511,10.0,0.008563853037774172,0.0,2.815633528929853e-09
1.04e-05,1.0032347873965755,8.57271348758407,10.0,0.008568917697443125,0.0,3.2306637419866908e-09
1.0500000000000001e-05,1.003141667227889,8.064874855511793,10.0,0.008576242381249424,0.0,3.6717184012915393e-09
1.06e-05,1.0030203455577518,7.557470414165637,10.0,0.008585825897264846,0.0,4.139002090911193e-09
1.0700000000000001e-05,1.0028708468826653,7.050513927623785,10.0,0.008597666991731851,0.0,4.632718583789414e-09
1.08e-05,1.002693196463183,6.544019137214203,10.0,0.008611764349144915,0.0,5.153070836696332e-09
1.09e-05,1.0024874203226382,6.037999761150111,10.0,0.008628116592333205,0.0,5.7002609852042975e-09
1.1000000000000001e-05,1.0022535452458483,5.5324694941663966,10.0,0.008646722282545191,0.0,6.274490338690292e-09
1.11e-05,1.0019915987778036,5.027442007156931,10.0,0.008667579919534471,0.0,6.875959375365039e-09
1.1200000000000001e-05,1.0018335806261223,9.92113041585928,10.0,0.008680598463930095,1.0,0.0
1.13e-05,1.0019738576939652,14.330797155718761,10.0,0.008669731965719829,0.0,2.6645493552792514e-11
1.1400000000000001e-05,1.002200529295411,13.819193441908963,10.0,0.008651500578878826,0.0,1.8866555434312836e-10
1.15e-05,1.0023987859502945,13.307866956380094,10.0,0.008635537093705556,0.0,3.745515956715644e-10
1.16e-05,1.0025686434411256,12.796831689707213,10.0,0.008621840959024789,0.0,5.84516175856517e-10
1.1700000000000001e-05,1.0027101183271658,12.286101613897625,10.0,0.008610411561115486,0.0,8.187710958331112e-10
1.18e-05,1.002823227943385,11.775690682016844,10.0,0.008601248223774739,0.0,1.07752739383941e-09
1.1900000000000001e-05,1.0029079903993994,11.265612827815346,10.0,0.008594350208383346,0.0,1.360995340127789e-09
1.2e-05,1.0029644245783882,10.755881965356139,10.0,0.008589716713973124,0.0,1.6693844317016102e-09
1.2100000000000001e-05,1.0029925501359904,10.246511988643139,10.0,0.008587346877295742,0.0,2.0029033870772944e-09
1.22e-05,1.0029923874991786,9.737516771250384,10.0,0.008587239772893576,0.0,2.361760141071961e-09
1.23e-05,1.0029639578651137,9.22891016595214,10.0,0.008589394413171903,0.0,2.7461618396167088e-09
1.2400000000000002e-05,1.0029072831999848,8.72070600435381,10.0,0.0085938097484726,0.0,3.156314834595707e-09
1.25e-05,1.0028223862378158,8.212918096523707,10.0,0.0086004846671502,0.0,3.5924246787111737e-09
1.2600000000000001e-05,1.0027092904792636,7.705560230625735,10.0,0.00860941799564897,0.0,4.0546961203744185e-09
1.27e-05,1.0025680201903866,7.198646172552947,10.0,0.008620608498582151,0.0,4.5433330986230495e-09
1.2800000000000001e-05,1.0023986004014038,6.692189665561957,10.0,0.008634054878812103,0.0,5.0585387380644416e-09
1.29e-05,1.0022010569054232,6.186204429908301,10.0,0.008649755777532936,0.0,5.600515343845614e-09
1.3000000000000001e-05,1.0019754162571548,5.6807041624826855,10.0,0.008667709774354361,0.0,6.169464396649638e-09
1.3100000000000002e-05,1.001721705771602,5.1757025364481635,10.0,0.00868791538738731,0.0,6.765586547718673e-09
1.32e-05,1.001523939157252,8.990069875995834,10.0,0.00870402498400242,1.0,0.0
1.3300000000000001e-05,1.0016173139147124,14.480537174809275,10.0,0.00869700444524352,0.0,0.0
1.34e-05,1.001852306165211,13.968997365715843,10.0,0.008678126890666682,0.0,1.572262968184989e-10
1.3500000000000001e-05,1.0020588869048632,13.457730577345162,10.0,0.008661506087640934,0.0,3.3824977377134627e-10
1.36e-05,1.0022370716824665,12.946750801766802,10.0,0.008647152170431707,0.0,5.432831521390502e-10
1.3700000000000001e-05,1.0023868768236555,12.43607201259828,10.0,0.008635064543931066,0.0,7.725383976026324e-10
1.3800000000000002e-05,1.0025083194298658,11.925708164630871,10.0,0.008625242550547658,0.0,1.0262267149239457e-09
1.39e-05,1.0026014173772784,11.415673193456202,10.0,0.008617685470271733,0.0,1.3045585426510897e-09
1.4000000000000001e-05,1.0026661893157416,10.905981015093687,10.0,0.008612392520742081,0.0,1.6077435478490934e-09
1.41e-05,1.0027026546676767,10.396645525618796,10.0,0.008609362857314156,0.0,1.9359906208559482e-09
1.4200000000000001e-05,1.002710833626957,9.887680600792105,10.0,0.008608595573130403,0.0,2.289507870064123e-09
1.43e-05,1.002690747157769,9.37910009568925,10.0,0.008610089699192105,0.0,2.668502616727755e-09
1.4400000000000001e-05,1.0026424169934556,8.870917844331679,10.0,0.008613844204432678,0.0,3.0731813897955327e-09
1.45e-05,1.0025658656353358,8.363147659318305,10.0,0.00861985799579272,0.0,3.503749920769465e-09
1.46e-05,1.0024611163515003,7.855803331458011,10.0,0.008628129918297289,0.0,3.9604131385896636e-09
1.4700000000000002e-05,1.002328193175598,7.3488986294030285,10.0,0.008638658755133711,0.0,4.443375164545233e-09
1.48e-05,1.0021671209055882,6.84244729928322,10.0,0.008651443227732286,0.0,4.9528393072113885e-09
1.4900000000000001e-05,1.0019779251024863,6.336463064341263,10.0,0.008666481995847467,0.0,5.48900805741295e-09
1.5e-05,1.001760632089077,5.83095962456873,10.0,0.008683773657641773,0.0,6.05208308321429e-09
1.5100000000000001e-05,1.0015152689486144,5.325950656343086,10.0,0.008703316749770658,0.0,6.642265224935922e-09
1.52e-05,1.0012851916351364,7.940861416191836,10.0,0.008721909943619674,1.0,0.0
1.5300000000000003e-05,1.0013203019525438,13.432248935623502,10.0,0.008719557324345718,1.0,0.0
1.54e-05,1.0015563953519757,14.12084407406734,10.0,0.008700705848768614,0.0,1.2342842459390325e-10
1.55e-05,1.0017714129103807,13.60960927710365,10.0,0.008683417397516867,0.0,2.9908261336673016e-10
1.56e-05,1.0019580361685696,13.098657251671204,10.0,0.008668395487816715,0.0,4.986784253679511e-10
1.5700000000000002e-05,1.002116281216616,12.588001973794391,10.0,0.00865563954336661,0.0,7.224280048158379e-10
1.58e-05,1.0022461649205314,12.07765740078724,10.0,0.008645148925376609,0.0,9.705427367666848e-10
1.59e-05,1.0023477049212168,11.567637470879895,10.0,0.008636922932632723,0.0,1.2432332418139267e-09
1.6000000000000003e-05,1.0024209196333917,11.05795610284586,10.0,0.008630960801563248,0.0,1.5407093708124213e-09
1.6100000000000002e-05,1.0024658282445011,10.548627195630122,10.0,0.008627261706306873,0.0,1.86318019962809e-09
1.62e-05,1.0024824507136063,10.039664627978024,10.0,0.00862582475878203,0.0,2.210854023913005e-09
1.63e-05,1.0024708077702509,9.531082258065053,10.0,0.008626649008758305,0.0,2.5839383539060477e-09
1.6400000000000002e-05,1.0024309209133104,9.022893923127416,10.0,0.008629733443929248,0.0,2.982639909259258e-09
1.65e-05,1.0023628124098167,8.515113439093538,10.0,0.008635076989987065,0.0,3.4071646138900337e-09
1.66e-05,1.0022665052937645,8.007754600216343,10.0,0.00864267851069901,0.0,3.857717590859283e-09
1.67e-05,1.0021420233648966,7.50083117870651,10.0,0.00865253680798521,0.0,4.33450315727563e-09
1.6800000000000002e-05,1.0019893911874729,6.994356924366521,10.0,0.008664650621998145,0.0,4.837724819225853e-09
1.69e-05,1.0018086340890118,6.488345564225682,10.0,0.008679018631204086,0.0,5.367585266731586e-09
1.7e-05,1.0015997781590147,5.982810802176006,10.0,0.00869563945246612,0.0,5.924286368732521e-09
1.7100000000000002e-05,1.0013628502476741,5.47776631860903,10.0,0.008714511641128363,0.0,6.508029168096123e-09
1.72e-05,1.0011118770525758,6.773036175725964,10.0,0.008734663052459945,1.0,0.0
1.73e-05,1.0010821346682512,12.26540175509659,10.0,0.00873750386363013,1.0,0.0
1.74e-05,1.0013032846814323,14.274325290648079,10.0,0.00871997155629281,0.0,8.7670776886137e-11
1.7500000000000002e-05,1.0015268292484265,13.76309984530833,10.0,0.00870200716850477,0.0,2.5754275804407645e-10
1.76e-05,1.0017219799185124,13.252152902442194,10.0,0.008686309076443566,0.0,4.512883931049587e-10
1.77e-05,1.0018887525446767,12.741498441131165,10.0,0.008672876722767736,0.0,6.691200160500684e-10
1.7800000000000002e-05,1.0020271637560159,12.23115042186257,10.0,0.008661709487639507,0.0,9.112492034386278e-10
1.79e-05,1.0021372309566974,11.721122786155806,10.0,0.008652806688788562,0.0,1.177886769100276e-09
1.8e-05,1.0022189723248902,11.21142945618948,10.0,0.00864616758157813,0.0,1.4692427588527066e-09
1.81e-05,1.0022724068116833,10.702084334429301,10.0,0.008641791359072191,0.0,1.785526445244587e-09
1.8200000000000002e-05,1.0022975541399801,10.19310130325677,10.0,0.008639677152104524,0.0,2.1269463223239e-09
1.83e-05,1.0022944348033722,9.684494224598794,10.0,0.008639824029349511,0.0,2.4937101004317983e-09
1.84e-05,1.0022630700649946,9.176276939558074,10.0,0.008642230997394496,0.0,2.8860247010221357e-09
1.8500000000000002e-05,1.0022034819563548,8.668463268044395,10.0,0.008646897000814075,0.0,3.3040962515067817e-09
1.86e-05,1.0021156932761486,8.161067008406736,10.0,0.008653820922245724,0.0,3.7481300801268576e-09
1.87e-05,1.0019997275890518,7.654101937066292,10.0,0.00866300158246722,0.0,4.218330710849986e-09
1.88e-05,1.001855609224492,7.147581808150356,10.0,0.008674437740475698,0.0,4.714901858293716e-09
1.8900000000000002e-05,1.0016833632754005,6.641520353127104,10.0,0.008688128093568396,0.0,5.238046422675184e-09
1.9e-05,1.0014830155969405,6.1359312804412856,10.0,0.008704071277425318,0.0,5.787966484787241e-09
1.91e-05,1.0012545928052228,5.630828275150817,10.0,0.008722265866192867,0.0,6.3648633010010404e-09
1.9200000000000003e-05,1.000998522273993,5.486219597257978,10.0,0.008742699705836477,1.0,0.0
1.93e-05,1.000897318199735,10.979624097349193,10.0,0.008751261253883046,1.0,0.0
1.94e-05,1.0010830592127642,14.429131593956845,10.0,0.00873669501733114,0.0,5.029648192402371e-11
